Using: /usr/local/apps/synopsys/current_hspice/hspice/linux64/hspice ./cmf_tb.sp
 ****** HSPICE -- K-2015.06-SP1 linux64 (Aug 23 2015) ******                    
  Copyright (c) 1986 - 2016 by Synopsys, Inc. All Rights Reserved.              
  This software and the associated documentation are proprietary
  to Synopsys, Inc. This software may only be used in accordance
  with the terms and conditions of a written license agreement with
  Synopsys, Inc. All other use, reproduction, or distribution of
  this software is strictly prohibited.
  Input File: ./cmf_tb.sp                                                       
  Command line options: /usr/local/apps/synopsys/current_hspice/hspice/linux64/hspice ./cmf_tb.sp
 lic:  
 lic: FLEXlm: v11.2.1 
 lic: USER:   lovetr               HOSTNAME: flip1.engr.oregonstate.edu 
 lic: HOSTID: "001e6849b3e4"       PID:      647 
 lic: Using FLEXlm license file: 
 lic: 7188@linlic.engr.oregonstate.edu 
 lic: Checkout 1 hspice 
 lic: License/Maintenance for hspice will expire on 10-aug-2016/2015.06 
 lic: 1(in_use)/50(total) FLOATING license(s) on SERVER 7188@linlic.engr.oregonstate.edu 
 lic:   
 Init: read install configuration file: /usr/local/apps/synopsys/current_hspice/hspice/meta.cfg
  **warning** (./cmf_tb.sp:87) Global net name, "gnd", in subckt pin list. The pin will be connected to the local net. Recommend to not use global net names in subckt pin lists.
1****** HSPICE -- K-2015.06-SP1 linux64 (Aug 23 2015) ******                    
 ******  
 .title ece423 final project

 ****** circuit name directory
 circuit number to circuit name directory
   number circuitname                     definition         multiplier
        0 main circuit
        1 x1.                             opamp              1.00 
        2 x2.                             opamp              1.00 
1****** HSPICE -- K-2015.06-SP1 linux64 (Aug 23 2015) ******                    
 ******  
 .title ece423 final project

 ****** mos   model parameters tnom=  25.000 temp=  25.000 ******
 ***************************************************************************
 ***        model parameters  model name:   0:cmosn    model type:nmos   ***
 ***************************************************************************

   *** general parameters ***
    deriv=   0.           

   ***  level 49  model parameters  ***

      hspver=    2006.03               level=         49         
     version=        3.1            paramchk=          0         
      apwarn=          1                lite=          0         
      vgslim=          0             binUnit=          1         
      capMod=          2               xpart=        0.4         
      mobMod=          1              nqsMod=          0         
      stiMod=          0                 elm=          5         
    sfvtflag=          0                 tox=    5.8e-09 meter   
          xj=      1e-07 meter       binflag=          0         
        lmin=          0 meter          lmax=          0 meter   
        wmin=          0 meter          wmax=          0 meter   
        lref=          0 meter          wref=          0 meter   
        lint=4.39347e-09 meter          wint= 2.1265e-09 meter   
       lmult=          1               wmult=          1         
          ll=          0                 lln=          1         
          lw=          0                 lwn=          1         
         lwl=          0                  wl=          0         
         wln=          1                  ww=          0         
         wwn=          1                 wwl=          0         
         dwg=-3.40903e-09 m/V             dwb=2.79484e-09 m/V^1/2 
          xl=     -3e-08                  xw=          0         
          a0=    1.23186                 ags=   0.304333 V^-1    
          b0=6.67749e-08 meter            b1=      5e-06 meter   
        keta=0.000851805 V^-1           voff=  -0.102605 V       
       ngate=          0 cm^-3           vbx=          0 V       
         vbm=         -3 V                xt=   1.55e-07 meter   
        vth0=   0.430894 V               nch= 2.3549e+17 cm^-3   
        nsub=      6e+16 cm^-3           nlx= 1.4659e-07 meter   
      gamma1=          0 V^-1/2       gamma2=          0 V^-1/2  
          k1=   0.351943 V^1/2            k2=  0.0298493         
          k3=      0.001                 k3b=  0.0592323 V^-1    
          w0=      1e-05 meter          dvt0=  0.0183405         
        dvt1= 0.00489758                dvt2= -0.0252658 V^-1    
       dvt0w=          0 meter^-1      dvt1w=          0 meter^-1
       dvt2w=          0 V^-1           dsub= 0.00304547         
        eta0= 0.00348737                etab=0.000455799 V^-1    
          u0=    455.303 cm^2/V/sec         ua=5.22359e-10 m/V     
          ub=1.10471e-18 (m/V)^2          uc=3.28789e-11 V^-1    
        vsat=     105099 m/sec            a1=          0 v^-1    
          a2=          1               delta=       0.01 V       
        rdsw=    509.568 ohm-um         prwg=  0.0227558 V^-1    
        prwb=     -0.001 V^-1/2           wr=          1         
        pclm=    1.04463             pdiblc1=   0.144195         
     pdiblc2=0.000451338             pdiblcb=-2.81676e-05 V^-1    
      pscbe1=1.76111e+10 V/m          pscbe2=3.77292e-09 V/m     
       drout=   0.469872                pvag=  0.0361824         
     nfactor=   0.134489                cdsc= 0.00152751 f/m^2   
       cdscb=          0 f/V/m^2       cdscd=          0 f/V/m^2 
         cit=          0 f/m^2        alpha0=          0 m/V     
       beta0=         30 V               dlc=4.39347e-09 meter   
         dwc= 2.1265e-09 meter           clc=      1e-07 meter   
         cle=        0.6                cgso=   6.27e-10 f/m     
        cgdo=   6.27e-10 f/m            cgbo=          0 f/m     
        cgsl=          0 f/m            cgdl=          0 f/m     
      ckappa=        0.6                  cf=9.33852e-11 f/m     
        tnom=     300.15 K               kt1=      -0.11 V       
        kt1l=          0                 kt2=      0.022         
         ute=       -1.5                 ua1=   4.31e-09 m/V     
         ub1=  -7.61e-18 (m/V)^2         uc1=   -5.6e-11 m/V^2   
          at=      33000 m/s             prt=          0         
         using Berkeley noise model       noiMod=          1         
        noia=      1e+20                noib=      50000         
        noic=   -1.4e-12                  em=    4.1e+07         
          ef=          1                  af=          1         
          kf=          0              gdsnoi=-1.23457e-29         
         using Hspice diodes            using ACM 
         acm=         0                 hdif=         0 meter    
        ldif=         0 meter             js=         0 amp/m^2  
         jsw=         0 amp/m            xti=         0          
           n=         1                   cj=0.00191866 f/m^2    
          mj=  0.472173                   pb=  0.978405 V        
        cjsw=4.44159e-10 f/m             mjsw=  0.287112          
         php=  0.978405 V               pbsw (not used)           
      cjgate=4.44159e-10 f/m            cjswg (not used)           
       mjswg (not used)                 pbswg (not used)           
       lketa=-0.00614406               wketa=0.000751269         
       pvth0= 0.00134299                 pk2=-0.00314072         
       prdsw=   -61.8357         
 ***************************************************************************
 ***        model parameters  model name:   0:cmosp    model type:pmos   ***
 ***************************************************************************

   *** general parameters ***
    deriv=   0.           

   ***  level 49  model parameters  ***

      hspver=    2006.03               level=         49         
     version=        3.1            paramchk=          0         
      apwarn=          1                lite=          0         
      vgslim=          0             binUnit=          1         
      capMod=          2               xpart=        0.4         
      mobMod=          1              nqsMod=          0         
      stiMod=          0                 elm=          5         
    sfvtflag=          0                 tox=    5.8e-09 meter   
          xj=      1e-07 meter       binflag=          0         
        lmin=          0 meter          lmax=          0 meter   
        wmin=          0 meter          wmax=          0 meter   
        lref=          0 meter          wref=          0 meter   
        lint=8.71907e-09 meter          wint=2.74881e-08 meter   
       lmult=          1               wmult=          1         
          ll=          0                 lln=          1         
          lw=          0                 lwn=          1         
         lwl=          0                  wl=          0         
         wln=          1                  ww=          0         
         wwn=          1                 wwl=          0         
         dwg=-4.08759e-08 m/V             dwb=2.03201e-08 m/V^1/2 
          xl=     -3e-08                  xw=          0         
          a0=    1.38264                 ags=   0.419298 V^-1    
          b0= 2.8441e-06 meter            b1=      5e-06 meter   
        keta=  0.0208695 V^-1           voff=      -0.15 V       
       ngate=          0 cm^-3           vbx=          0 V       
         vbm=         -3 V                xt=   1.55e-07 meter   
        vth0=  -0.615873 V               nch= 4.1589e+17 cm^-3   
        nsub=      6e+16 cm^-3           nlx=      1e-09 meter   
      gamma1=          0 V^-1/2       gamma2=          0 V^-1/2  
          k1=   0.459838 V^1/2            k2=  0.0399415         
          k3=          0                 k3b=    8.74107 V^-1    
          w0=      1e-06 meter          dvt0=   0.624949         
        dvt1=   0.203296                dvt2= -0.0513763 V^-1    
       dvt0w=          0 meter^-1      dvt1w=          0 meter^-1
       dvt2w=          0 V^-1           dsub=    1.02871         
        eta0=   0.324124                etab=    -0.1842 V^-1    
          u0=    158.675 cm^2/V/sec         ua=2.20002e-10 m/V     
          ub=4.45742e-18 (m/V)^2          uc=1.02138e-10 V^-1    
        vsat=     185064 m/sec            a1=          0 v^-1    
          a2=          1               delta=       0.01 V       
        rdsw=    968.546 ohm-um         prwg=  -0.102648 V^-1    
        prwb=     -0.325 V^-1/2           wr=          1         
        pclm=    5.26546             pdiblc1= 0.00422834         
     pdiblc2= 0.00120452             pdiblcb= 0.00237525 V^-1    
      pscbe1=3.01146e+10 V/m          pscbe2=3.03704e-07 V/m     
       drout=          0                pvag=    8.95643         
     nfactor=    1.54605                cdsc=0.000141332 f/m^2   
       cdscb=          0 f/V/m^2       cdscd=          0 f/V/m^2 
         cit=          0 f/m^2        alpha0=          0 m/V     
       beta0=         30 V               dlc=8.71907e-09 meter   
         dwc=2.74881e-08 meter           clc=      1e-07 meter   
         cle=        0.6                cgso=   5.59e-10 f/m     
        cgdo=   5.59e-10 f/m            cgbo=          0 f/m     
        cgsl=          0 f/m            cgdl=          0 f/m     
      ckappa=        0.6                  cf=9.33852e-11 f/m     
        tnom=     300.15 K               kt1=      -0.11 V       
        kt1l=          0                 kt2=      0.022         
         ute=       -1.5                 ua1=   4.31e-09 m/V     
         ub1=  -7.61e-18 (m/V)^2         uc1=   -5.6e-11 m/V^2   
          at=      33000 m/s             prt=          0         
         using Berkeley noise model       noiMod=          1         
        noia=    9.9e+18                noib=       2400         
        noic=    1.4e-12                  em=    4.1e+07         
          ef=          1                  af=          1         
          kf=          0              gdsnoi=-1.23457e-29         
         using Hspice diodes            using ACM 
         acm=         0                 hdif=         0 meter    
        ldif=         0 meter             js=         0 amp/m^2  
         jsw=         0 amp/m            xti=         0          
           n=         1                   cj=0.00188286 f/m^2    
          mj=  0.467979                   pb=  0.989132 V        
        cjsw=3.67186e-10 f/m             mjsw=  0.356213          
         php=  0.989132 V               pbsw (not used)           
      cjgate=3.67186e-10 f/m            cjswg (not used)           
       mjswg (not used)                 pbswg (not used)           
       lketa= -0.0232426               lvsat=     125700         
       wketa= 0.00410049               pvth0= 0.00392376         
         pk2= 0.00206176               prdsw=    15.3953         
 

  **warning** (./cmf_tb.sp:186) Unable to find referenced node voutp; Output variable ignored. Specify a valid node.
  

  **warning** the following singular supplies were terminated to 1 meg resistor 
          supply       node1            node2
(./cmf_tb.sp:75)v3                      0:vss              defined in subckt 0                     0:0                defined in subckt 0               
      
 **info** set option symb=1 internally to help for convergence.
 *****************************************************************
 ******  option summary
 ******
 runlvl  = 3         bypass  = 2         
  Opening plot unit= 15
 file=cmf_tb.pa0

 **info** dc convergence successful at GMINDC ramping method 
1****** HSPICE -- K-2015.06-SP1 linux64 (Aug 23 2015) ******                    
 ******  
 .title ece423 final project

 ****** operating point information tnom=  25.000 temp=  27.000 ******
 ****** operating point status is all       simulation time is     0.     
    node    =voltage      node    =voltage      node    =voltage

 +0:b       =   1.9158  0:bias    =   1.2500  0:bout    =   1.9077 
 +0:nc      =   1.9672  0:vdd     =   2.5000  0:vin1    =   1.2500 
 +0:vin2    =   1.2500  0:voutn   =   1.2533  0:voutp   =   1.2533 
 +0:vss     =   0.      1:a       =   1.9147  1:d51s5   = 147.0483m
 +1:d8s10   = 165.9134m 1:d9s11   = 165.9134m 1:dt1     = 644.1565m
 +1:dt2     =   1.5149  1:idiff   = 657.3140m 1:idiff1  = 437.5821m
 +1:idiff2  = 437.5821m 1:iref    =   1.9025  1:s24d26  = 139.0006m
 +1:s25d27  = 139.0006m 1:sb1     = 771.8059m 1:sooch   =   1.4160 
 +1:vcm_ref =   1.2500  1:vfold1  =   2.0955  1:vfold2  =   2.0955 
 +2:a       =   1.8547  2:d51s5   = 147.0553m 2:d8s10   = 186.0662m
 +2:d9s11   = 186.0662m 2:dt1     = 644.1565m 2:dt2     =   1.5149 
 +2:idiff   = 657.5183m 2:idiff1  = 959.3101m 2:idiff2  = 959.3101m
 +2:iref    =   1.9025  2:s24d26  = 156.9071m 2:s25d27  = 156.9071m
 +2:sb1     = 771.8059m 2:sooch   =   1.4160  2:vcm_ref =   1.2500 
 +2:vfold1  =   2.1023  2:vfold2  =   2.1023 


 **** voltage sources

 subckt                                                                    
 element  0:v1       0:v2       0:v3       0:v4       0:v6       0:vcmf    
  volts      1.2500     2.5000     0.         1.2500     1.2500     1.9077 
  current    0.        -7.2791m    0.         0.         0.         0.     
  power      0.        18.1978m    0.         0.         0.         0.     

 subckt   x1         x2        
 element  1:v5       2:v5      
  volts      1.2500     1.2500 
  current    0.         0.     
  power      0.         0.     

     total voltage source power dissipation=   18.1978m       watts



 **** current sources

 subckt   x1         x2        
 element  1:i1       2:i1      
  volts      1.9025     1.9025 
  current  400.0000u  400.0000u
  power   -760.9899u -760.9899u


     total current source power dissipation=  -1.5220m       watts


 **** mosfets


 subckt   x1         x1         x1         x1         x1         x1        
 element  1:m0       1:m1       1:m2       1:m3       1:m4       1:m5      
 model    0:cmosp    0:cmosn    0:cmosn    0:cmosp    0:cmosp    0:cmosn   
 region     Saturati   Saturati   Saturati   Saturati   Saturati   Saturati
  id      -400.0000u  343.7186u  343.7186u -352.7183u -352.7183u  687.4372u
  ibs        0.         0.         0.         0.         0.         0.     
  ibd        0.         0.         0.         0.         0.         0.     
  vgs     -597.5253m  592.6860m  592.6860m -580.6292m -580.6292m  644.1565m
  vds     -597.5253m    1.4382     1.4382  -842.2013m -842.2013m  147.0483m
  vbs        0.         0.         0.         0.         0.         0.     
  vth     -514.0251m  510.4462m  510.4462m -510.8003m -510.8003m  523.6893m
  vdsat   -126.3072m   98.3265m   98.3265m -117.6743m -117.6743m  120.7324m
  vod      -83.5002m   82.2398m   82.2398m  -69.8289m  -69.8289m  120.4671m
  beta      58.0858m   59.2213m   59.2213m   58.3566m   58.3566m  117.4799m
  gam eff  384.4091m  297.1965m  297.1965m  384.4091m  384.4091m  296.9071m
  gm         4.9408m    4.8153m    4.8153m    4.5806m    4.5806m    8.6259m
  gds      147.5018u  150.3679u  150.3679u  124.8950u  124.8950u    1.1132m
  gmb        1.2098m    1.0520m    1.0520m    1.1194m    1.1194m    1.8672m
  cdtot    325.4392f  111.9029f  111.9029f  311.7089f  311.7089f  279.0998f
  cgtot    313.8552f  115.9330f  115.9330f  309.8402f  309.8402f  239.7329f
  cstot    451.7966f  169.5892f  169.5892f  448.5485f  448.5485f  343.0650f
  cbtot    550.1113f  193.9448f  193.9448f  536.4929f  536.4929f  439.9133f
  cgs      212.8544f   78.3295f   78.3295f  207.5166f  207.5166f  164.2425f
  cgd       91.9350f   35.5721f   35.5721f   91.9747f   91.9747f   73.1686f



 subckt   x1         x1         x1         x1         x1         x1        
 element  1:m51      1:m6       1:m7       1:m8       1:m9       1:m10     
 model    0:cmosn    0:cmosp    0:cmosp    0:cmosn    0:cmosn    0:cmosn   
 region     Saturati   Saturati   Saturati   Saturati   Saturati   Saturati
  id       687.4372u -696.4369u -696.4369u  352.7183u  352.7183u  352.7183u
  ibs        0.         0.         0.         0.         0.         0.     
  ibd        0.         0.         0.         0.         0.         0.     
  vgs      624.7576m -592.3000m -592.3000m  644.1565m  644.1565m  605.8925m
  vds      510.2657m -404.5117m -404.5117m  165.9134m  165.9134m    1.0874 
  vbs        0.         0.         0.         0.         0.         0.     
  vth      519.9450m -516.6400m -516.6400m  523.5617m  523.5617m  514.0625m
  vdsat    111.1715m -121.5404m -121.5404m  120.7975m  120.7975m  103.6239m
  vod      104.8126m  -75.6600m  -75.6600m  120.5948m  120.5948m   91.8300m
  beta     117.8315m  116.2155m  116.2155m   58.7391m   58.7391m   59.1000m
  gam eff  296.9071m  384.4794m  384.4794m  297.1965m  297.1965m  297.1965m
  gm         9.3608m    8.8587m    8.8587m    4.4844m    4.4844m    4.8568m
  gds      371.1592u  279.5002u  279.5002u  438.6744u  438.6744u  162.8769u
  gmb        2.0292m    2.1777m    2.1777m  969.2209u  969.2209u    1.0576m
  cdtot    254.9167f  676.9713f  676.9713f  138.7075f  138.7075f  116.6749f
  cgtot    235.9184f  623.5746f  623.5746f  119.6197f  119.6197f  116.8717f
  cstot    341.5530f  900.0106f  900.0106f  171.8394f  171.8394f  170.2819f
  cbtot    418.3183f    1.1257p    1.1257p  219.8145f  219.8145f  198.7030f
  cgs      161.6244f  420.6621f  420.6621f   82.1460f   82.1460f   79.4879f
  cgd       71.1370f  184.0374f  184.0374f   36.2574f   36.2574f   35.5632f



 subckt   x1         x1         x1         x1         x1         x1        
 element  1:m11      1:m16      1:m17      1:m12      1:m13      1:m14     
 model    0:cmosn    0:cmosp    0:cmosn    0:cmosp    0:cmosn    0:cmosn   
 region     Saturati   Saturati   Saturati   Saturati   Saturati     Linear
  id       352.7183u -678.5295u  678.5295u -472.8701u  472.8701u  472.8701u
