Using: /usr/local/apps/synopsys/current_hspice/hspice/linux64/hspice ./outswing_tb.sp
 ****** HSPICE -- K-2015.06-SP1 linux64 (Aug 23 2015) ******                    
  Copyright (c) 1986 - 2016 by Synopsys, Inc. All Rights Reserved.              
  This software and the associated documentation are proprietary
  to Synopsys, Inc. This software may only be used in accordance
  with the terms and conditions of a written license agreement with
  Synopsys, Inc. All other use, reproduction, or distribution of
  this software is strictly prohibited.
  Input File: ./outswing_tb.sp                                                  
  Command line options: /usr/local/apps/synopsys/current_hspice/hspice/linux64/hspice ./outswing_tb.sp
 lic:  
 lic: FLEXlm: v11.2.1 
 lic: USER:   lovetr               HOSTNAME: flip1.engr.oregonstate.edu 
 lic: HOSTID: "001e6849b3e4"       PID:      679 
 lic: Using FLEXlm license file: 
 lic: 7188@linlic.engr.oregonstate.edu 
 lic: Checkout 1 hspice 
 lic: License/Maintenance for hspice will expire on 10-aug-2016/2015.06 
 lic: 1(in_use)/50(total) FLOATING license(s) on SERVER 7188@linlic.engr.oregonstate.edu 
 lic:   
 Init: read install configuration file: /usr/local/apps/synopsys/current_hspice/hspice/meta.cfg
1****** HSPICE -- K-2015.06-SP1 linux64 (Aug 23 2015) ******                    
 ******  
 .title ece423 final project

 ****** mos   model parameters tnom=  25.000 temp=  25.000 ******
 ***************************************************************************
 ***        model parameters  model name:   0:cmosn    model type:nmos   ***
 ***************************************************************************

   *** general parameters ***
    deriv=   0.           

   ***  level 49  model parameters  ***

      hspver=    2006.03               level=         49         
     version=        3.1            paramchk=          0         
      apwarn=          1                lite=          0         
      vgslim=          0             binUnit=          1         
      capMod=          2               xpart=        0.4         
      mobMod=          1              nqsMod=          0         
      stiMod=          0                 elm=          5         
    sfvtflag=          0                 tox=    5.8e-09 meter   
          xj=      1e-07 meter       binflag=          0         
        lmin=          0 meter          lmax=          0 meter   
        wmin=          0 meter          wmax=          0 meter   
        lref=          0 meter          wref=          0 meter   
        lint=4.39347e-09 meter          wint= 2.1265e-09 meter   
       lmult=          1               wmult=          1         
          ll=          0                 lln=          1         
          lw=          0                 lwn=          1         
         lwl=          0                  wl=          0         
         wln=          1                  ww=          0         
         wwn=          1                 wwl=          0         
         dwg=-3.40903e-09 m/V             dwb=2.79484e-09 m/V^1/2 
          xl=     -3e-08                  xw=          0         
          a0=    1.23186                 ags=   0.304333 V^-1    
          b0=6.67749e-08 meter            b1=      5e-06 meter   
        keta=0.000851805 V^-1           voff=  -0.102605 V       
       ngate=          0 cm^-3           vbx=          0 V       
         vbm=         -3 V                xt=   1.55e-07 meter   
        vth0=   0.430894 V               nch= 2.3549e+17 cm^-3   
        nsub=      6e+16 cm^-3           nlx= 1.4659e-07 meter   
      gamma1=          0 V^-1/2       gamma2=          0 V^-1/2  
          k1=   0.351943 V^1/2            k2=  0.0298493         
          k3=      0.001                 k3b=  0.0592323 V^-1    
          w0=      1e-05 meter          dvt0=  0.0183405         
        dvt1= 0.00489758                dvt2= -0.0252658 V^-1    
       dvt0w=          0 meter^-1      dvt1w=          0 meter^-1
       dvt2w=          0 V^-1           dsub= 0.00304547         
        eta0= 0.00348737                etab=0.000455799 V^-1    
          u0=    455.303 cm^2/V/sec         ua=5.22359e-10 m/V     
          ub=1.10471e-18 (m/V)^2          uc=3.28789e-11 V^-1    
        vsat=     105099 m/sec            a1=          0 v^-1    
          a2=          1               delta=       0.01 V       
        rdsw=    509.568 ohm-um         prwg=  0.0227558 V^-1    
        prwb=     -0.001 V^-1/2           wr=          1         
        pclm=    1.04463             pdiblc1=   0.144195         
     pdiblc2=0.000451338             pdiblcb=-2.81676e-05 V^-1    
      pscbe1=1.76111e+10 V/m          pscbe2=3.77292e-09 V/m     
       drout=   0.469872                pvag=  0.0361824         
     nfactor=   0.134489                cdsc= 0.00152751 f/m^2   
       cdscb=          0 f/V/m^2       cdscd=          0 f/V/m^2 
         cit=          0 f/m^2        alpha0=          0 m/V     
       beta0=         30 V               dlc=4.39347e-09 meter   
         dwc= 2.1265e-09 meter           clc=      1e-07 meter   
         cle=        0.6                cgso=   6.27e-10 f/m     
        cgdo=   6.27e-10 f/m            cgbo=          0 f/m     
        cgsl=          0 f/m            cgdl=          0 f/m     
      ckappa=        0.6                  cf=9.33852e-11 f/m     
        tnom=     300.15 K               kt1=      -0.11 V       
        kt1l=          0                 kt2=      0.022         
         ute=       -1.5                 ua1=   4.31e-09 m/V     
         ub1=  -7.61e-18 (m/V)^2         uc1=   -5.6e-11 m/V^2   
          at=      33000 m/s             prt=          0         
         using Berkeley noise model       noiMod=          1         
        noia=      1e+20                noib=      50000         
        noic=   -1.4e-12                  em=    4.1e+07         
          ef=          1                  af=          1         
          kf=          0              gdsnoi=-1.23457e-29         
         using Hspice diodes            using ACM 
         acm=         0                 hdif=         0 meter    
        ldif=         0 meter             js=         0 amp/m^2  
         jsw=         0 amp/m            xti=         0          
           n=         1                   cj=0.00191866 f/m^2    
          mj=  0.472173                   pb=  0.978405 V        
        cjsw=4.44159e-10 f/m             mjsw=  0.287112          
         php=  0.978405 V               pbsw (not used)           
      cjgate=4.44159e-10 f/m            cjswg (not used)           
       mjswg (not used)                 pbswg (not used)           
       lketa=-0.00614406               wketa=0.000751269         
       pvth0= 0.00134299                 pk2=-0.00314072         
       prdsw=   -61.8357         
 ***************************************************************************
 ***        model parameters  model name:   0:cmosp    model type:pmos   ***
 ***************************************************************************

   *** general parameters ***
    deriv=   0.           

   ***  level 49  model parameters  ***

      hspver=    2006.03               level=         49         
     version=        3.1            paramchk=          0         
      apwarn=          1                lite=          0         
      vgslim=          0             binUnit=          1         
      capMod=          2               xpart=        0.4         
      mobMod=          1              nqsMod=          0         
      stiMod=          0                 elm=          5         
    sfvtflag=          0                 tox=    5.8e-09 meter   
          xj=      1e-07 meter       binflag=          0         
        lmin=          0 meter          lmax=          0 meter   
        wmin=          0 meter          wmax=          0 meter   
        lref=          0 meter          wref=          0 meter   
        lint=8.71907e-09 meter          wint=2.74881e-08 meter   
       lmult=          1               wmult=          1         
          ll=          0                 lln=          1         
          lw=          0                 lwn=          1         
         lwl=          0                  wl=          0         
         wln=          1                  ww=          0         
         wwn=          1                 wwl=          0         
         dwg=-4.08759e-08 m/V             dwb=2.03201e-08 m/V^1/2 
          xl=     -3e-08                  xw=          0         
          a0=    1.38264                 ags=   0.419298 V^-1    
          b0= 2.8441e-06 meter            b1=      5e-06 meter   
        keta=  0.0208695 V^-1           voff=      -0.15 V       
       ngate=          0 cm^-3           vbx=          0 V       
         vbm=         -3 V                xt=   1.55e-07 meter   
        vth0=  -0.615873 V               nch= 4.1589e+17 cm^-3   
        nsub=      6e+16 cm^-3           nlx=      1e-09 meter   
      gamma1=          0 V^-1/2       gamma2=          0 V^-1/2  
          k1=   0.459838 V^1/2            k2=  0.0399415         
          k3=          0                 k3b=    8.74107 V^-1    
          w0=      1e-06 meter          dvt0=   0.624949         
        dvt1=   0.203296                dvt2= -0.0513763 V^-1    
       dvt0w=          0 meter^-1      dvt1w=          0 meter^-1
       dvt2w=          0 V^-1           dsub=    1.02871         
        eta0=   0.324124                etab=    -0.1842 V^-1    
          u0=    158.675 cm^2/V/sec         ua=2.20002e-10 m/V     
          ub=4.45742e-18 (m/V)^2          uc=1.02138e-10 V^-1    
        vsat=     185064 m/sec            a1=          0 v^-1    
          a2=          1               delta=       0.01 V       
        rdsw=    968.546 ohm-um         prwg=  -0.102648 V^-1    
        prwb=     -0.325 V^-1/2           wr=          1         
        pclm=    5.26546             pdiblc1= 0.00422834         
     pdiblc2= 0.00120452             pdiblcb= 0.00237525 V^-1    
      pscbe1=3.01146e+10 V/m          pscbe2=3.03704e-07 V/m     
       drout=          0                pvag=    8.95643         
     nfactor=    1.54605                cdsc=0.000141332 f/m^2   
       cdscb=          0 f/V/m^2       cdscd=          0 f/V/m^2 
         cit=          0 f/m^2        alpha0=          0 m/V     
       beta0=         30 V               dlc=8.71907e-09 meter   
         dwc=2.74881e-08 meter           clc=      1e-07 meter   
         cle=        0.6                cgso=   5.59e-10 f/m     
        cgdo=   5.59e-10 f/m            cgbo=          0 f/m     
        cgsl=          0 f/m            cgdl=          0 f/m     
      ckappa=        0.6                  cf=9.33852e-11 f/m     
        tnom=     300.15 K               kt1=      -0.11 V       
        kt1l=          0                 kt2=      0.022         
         ute=       -1.5                 ua1=   4.31e-09 m/V     
         ub1=  -7.61e-18 (m/V)^2         uc1=   -5.6e-11 m/V^2   
          at=      33000 m/s             prt=          0         
         using Berkeley noise model       noiMod=          1         
        noia=    9.9e+18                noib=       2400         
        noic=    1.4e-12                  em=    4.1e+07         
          ef=          1                  af=          1         
          kf=          0              gdsnoi=-1.23457e-29         
         using Hspice diodes            using ACM 
         acm=         0                 hdif=         0 meter    
        ldif=         0 meter             js=         0 amp/m^2  
         jsw=         0 amp/m            xti=         0          
           n=         1                   cj=0.00188286 f/m^2    
          mj=  0.467979                   pb=  0.989132 V        
        cjsw=3.67186e-10 f/m             mjsw=  0.356213          
         php=  0.989132 V               pbsw (not used)           
      cjgate=3.67186e-10 f/m            cjswg (not used)           
       mjswg (not used)                 pbswg (not used)           
       lketa= -0.0232426               lvsat=     125700         
       wketa= 0.00410049               pvth0= 0.00392376         
         pk2= 0.00206176               prdsw=    15.3953         
 

  

  **warning** the following singular supplies were terminated to 1 meg resistor 
          supply       node1            node2
(./outswing_tb.sp:104)v3                      0:vss              defined in subckt 0                     0:0                defined in subckt 0               
      
 **info** set option symb=1 internally to help for convergence.
 *****************************************************************
 ******  option summary
 ******
 runlvl  = 3         bypass  = 2         
 **info** dc convergence successful at GMINDC ramping method 
1****** HSPICE -- K-2015.06-SP1 linux64 (Aug 23 2015) ******                    
 ******  
 .title ece423 final project

 ****** operating point information tnom=  25.000 temp=  27.000 ******
 ****** operating point status is all       simulation time is     0.     
    node    =voltage      node    =voltage      node    =voltage

 +0:a       =   1.9222  0:b       =   1.9119  0:d10     = 292.4303m
 +0:d11     = 292.4303m 0:d3      =   1.8929  0:d4      =   1.8929 
 +0:d51s5   = 149.7171m 0:d8s10   = 133.9292m 0:d9s11   = 133.9292m
 +0:dt1     = 641.0692m 0:dt2     =   1.5217  0:dt3     =   1.3140 
 +0:idiff   = 660.2877m 0:idiff1  = 623.6213m 0:idiff2  = 623.6213m
 +0:iref    =   1.9025  0:s24d26  = 148.4340m 0:s25d27  = 148.4340m
 +0:sb1     = 771.9131m 0:sb2     = 896.7946m 0:sooch   =   1.5379 
 +0:vcm_ref =   1.2500  0:vdd     =   2.5000  0:vfold1  =   2.1144 
 +0:vfold2  =   2.1144  0:vin1    =   1.2500  0:vin2    =   1.2500 
 +0:voutn   =   1.2365  0:voutp   =   1.2365  0:vss     =   0.     
 +0:vtest   =   1.2500 


 **** voltage sources

 subckt                                                         
 element  0:v2       0:v3       0:v5       0:v6       0:v7      
  volts      2.5000     0.         1.2500     0.         1.2500 
  current   -4.0895m    0.         0.        -1.2500n   -2.5000n
  power     10.2237m    0.         0.         0.         3.1250n

     total voltage source power dissipation=   10.2237m       watts



 **** current sources

 subckt             
 element  0:i1      
  volts      1.9025 
  current  400.0000u
  power   -760.9899u


     total current source power dissipation=-760.9899u       watts

 **** resistors

 subckt                        
 element  0:rf1      0:rf2     
  r value    1.0000g    1.0000g
  v drop     1.2500     1.2500 
  current    1.2500n    1.2500n
  power      1.5625n    1.5625n


 **** voltage-controlled voltage sources


 subckt             
 element  0:e1      
  volts      0.     
  current   -1.2500n





 **** mosfets


 subckt                                                                    
 element  0:m0       0:m1       0:m2       0:m3       0:m4       0:m34     
 model    0:cmosp    0:cmosn    0:cmosn    0:cmosp    0:cmosp    0:cmosp   
 region     Saturati   Saturati   Saturati   Saturati   Saturati   Saturati
  id      -400.0000u  331.9318u  331.9318u -322.6880u -322.6880u -322.6880u
  ibs        0.         0.         0.         0.         0.         0.     
  ibd        0.         0.         0.         0.         0.         0.     
  vgs     -597.5253m  589.7123m  589.7123m -592.6832m -592.6832m -578.9911m
  vds     -597.5253m    1.4541     1.4541  -221.4052m -221.4052m -656.4526m
  vbs        0.         0.         0.         0.         0.         0.     
  vth     -514.0251m  510.2824m  510.2824m -518.9822m -518.9822m -513.2485m
  vdsat   -126.3072m   96.8225m   96.8225m -120.0798m -120.0798m -115.1763m
  vod      -83.5002m   79.4299m   79.4299m  -73.7010m  -73.7010m  -65.7426m
  beta      58.0858m   59.2411m   59.2411m   58.0463m   58.0463m   58.3261m
  gam eff  384.4091m  297.1965m  297.1965m  384.4091m  384.4091m  384.4091m
  gm         4.9408m    4.6948m    4.6948m    4.1181m    4.1181m    4.2553m
  gds      147.5018u  145.8315u  145.8315u  167.9604u  167.9604u  120.6261u
  gmb        1.2098m    1.0259m    1.0259m    1.0135m    1.0135m    1.0438m
  cdtot    325.4392f  111.7112f  111.7112f  354.2860f  354.2860f  321.8846f
  cgtot    313.8552f  115.6305f  115.6305f  311.5745f  311.5745f  308.4596f
  cstot    451.7966f  169.3633f  169.3633f  449.9145f  449.9145f  447.5353f
  cbtot    550.1113f  193.7576f  193.7576f  578.5470f  578.5470f  546.6359f
  cgs      212.8544f   77.9513f   77.9513f  209.9555f  209.9555f  205.9223f
  cgd       91.9350f   35.5752f   35.5752f   92.2880f   92.2880f   91.9987f



 subckt                                                                    
 element  0:m35      0:m5       0:m51      0:m6       0:m7       0:m8      
 model    0:cmosp    0:cmosn    0:cmosn    0:cmosp    0:cmosp    0:cmosn   
 region     Saturati   Saturati   Saturati   Saturati   Saturati   Saturati
  id      -322.6880u  663.8636u  663.8636u -654.6198u -654.6198u  322.6880u
  ibs        0.         0.         0.         0.         0.         0.     
  ibd        0.         0.         0.         0.         0.         0.     
  vgs     -578.9911m  641.0692m  622.1959m -588.0670m -588.0670m  641.0692m
  vds     -656.4526m  149.7171m  510.5705m -385.6489m -385.6489m  133.9292m
  vbs        0.         0.         0.         0.         0.         0.     
  vth     -513.2485m  523.6618m  519.9419m -516.8886m -516.8886m  523.8914m
  vdsat   -115.1763m  118.8287m  109.6589m -118.7370m -118.7370m  118.6735m
  vod      -65.7426m  117.4074m  102.2540m  -71.1784m  -71.1784m  117.1778m
  beta      58.3261m  117.5259m  117.8668m  116.3080m  116.3080m   58.7587m
  gam eff  384.4091m  296.9071m  296.9071m  384.4794m  384.4794m  297.1965m
  gm         4.2553m    8.4775m    9.1310m    8.4650m    8.4650m    4.0598m
  gds      120.6261u    1.0103m  361.0163u  267.0145u  267.0145u  642.0636u
  gmb        1.0438m    1.8348m    1.9796m    2.0828m    2.0828m  878.8981u
  cdtot    321.8846f  278.6274f  254.9022f  679.8540f  679.8540f  140.6795f
  cgtot    308.4596f  239.2439f  235.5384f  620.8266f  620.8266f  119.8776f
  cstot    447.5353f  342.8225f  341.2693f  897.8524f  897.8524f  171.6636f
  cbtot    546.6359f  439.7058f  418.3132f    1.1286p    1.1286p  221.0514f
  cgs      205.9223f  163.8361f  161.1470f  417.1762f  417.1762f   81.8475f
  cgd       91.9987f   72.9693f   71.1400f  184.0835f  184.0835f   36.8555f



 subckt                                                                    
 element  0:m9       0:m10      0:m11      0:m32      0:m33      0:m16     
 model    0:cmosn    0:cmosn    0:cmosn    0:cmosn    0:cmosn    0:cmosp   
 region     Saturati   Saturati   Saturati   Saturati   Saturati   Saturati
  id       322.6880u  322.6880u  322.6880u  322.6880u  322.6880u -656.9181u
  ibs        0.         0.         0.         0.         0.         0.     
  ibd        0.         0.         0.         0.         0.         0.     
  vgs      641.0692m  637.9838m  637.9838m  604.3642m  604.3642m -978.3322m
  vds      133.9292m  158.5011m  158.5011m  944.0629m  944.0629m -978.3322m
  vbs        0.         0.         0.         0.         0.         0.     
  vth      523.8914m  523.6381m  523.6381m  515.5399m  515.5399m -611.5729m
  vdsat    118.6735m  116.9275m  116.9275m  101.9448m  101.9448m -329.4633m
  vod      117.1778m  114.3458m  114.3458m   88.8243m   88.8243m -366.7593m
  beta      58.7587m   58.7836m   58.7836m   59.0943m   59.0943m   10.6429m
  gam eff  297.1965m  297.1965m  297.1965m  297.1965m  297.1965m  384.5201m
  gm         4.0598m    4.2081m    4.2081m    4.5330m    4.5330m    3.1207m
  gds      642.0636u  425.9861u  425.9861u  156.1433u  156.1433u   30.7262u
  gmb      878.8981u  909.7628u  909.7628u  986.1734u  986.1734u  897.1567u
