Using: /usr/local/apps/synopsys/current_hspice/hspice/linux64/hspice ./ms/opamp_soochin.sp
 ****** HSPICE -- K-2015.06-SP1 linux64 (Aug 23 2015) ******                    
  Copyright (c) 1986 - 2016 by Synopsys, Inc. All Rights Reserved.              
  This software and the associated documentation are proprietary
  to Synopsys, Inc. This software may only be used in accordance
  with the terms and conditions of a written license agreement with
  Synopsys, Inc. All other use, reproduction, or distribution of
  this software is strictly prohibited.
  Input File: ./ms/opamp_soochin.sp                                             
  Command line options: /usr/local/apps/synopsys/current_hspice/hspice/linux64/hspice ./ms/opamp_soochin.sp
 lic:  
 lic: FLEXlm: v11.2.1 
 lic: USER:   lovetr               HOSTNAME: kec1130-13.engr.oregonstate.edu 
 lic: HOSTID: 8cdcd44e75fe         PID:      8760 
 lic: Using FLEXlm license file: 
 lic: 7188@linlic.engr.oregonstate.edu 
 lic: Checkout 1 hspice 
 lic: License/Maintenance for hspice will expire on 10-aug-2016/2015.06 
 lic: 1(in_use)/50(total) FLOATING license(s) on SERVER 7188@linlic.engr.oregonstate.edu 
 lic:   
 Init: read install configuration file: /usr/local/apps/synopsys/current_hspice/hspice/meta.cfg
1****** HSPICE -- K-2015.06-SP1 linux64 (Aug 23 2015) ******                    
 ******  
 .title ece423 final project

 ****** mos   model parameters tnom=  25.000 temp=  25.000 ******
 ***************************************************************************
 ***        model parameters  model name:   0:cmosn    model type:nmos   ***
 ***************************************************************************

   *** general parameters ***
    deriv=   0.           

   ***  level 49  model parameters  ***

      hspver=    2006.03               level=         49         
     version=        3.1            paramchk=          0         
      apwarn=          1                lite=          0         
      vgslim=          0             binUnit=          1         
      capMod=          2               xpart=        0.4         
      mobMod=          1              nqsMod=          0         
      stiMod=          0                 elm=          5         
    sfvtflag=          0                 tox=    5.8e-09 meter   
          xj=      1e-07 meter       binflag=          0         
        lmin=          0 meter          lmax=          0 meter   
        wmin=          0 meter          wmax=          0 meter   
        lref=          0 meter          wref=          0 meter   
        lint=4.39347e-09 meter          wint= 2.1265e-09 meter   
       lmult=          1               wmult=          1         
          ll=          0                 lln=          1         
          lw=          0                 lwn=          1         
         lwl=          0                  wl=          0         
         wln=          1                  ww=          0         
         wwn=          1                 wwl=          0         
         dwg=-3.40903e-09 m/V             dwb=2.79484e-09 m/V^1/2 
          xl=     -3e-08                  xw=          0         
          a0=    1.23186                 ags=   0.304333 V^-1    
          b0=6.67749e-08 meter            b1=      5e-06 meter   
        keta=0.000851805 V^-1           voff=  -0.102605 V       
       ngate=          0 cm^-3           vbx=          0 V       
         vbm=         -3 V                xt=   1.55e-07 meter   
        vth0=   0.430894 V               nch= 2.3549e+17 cm^-3   
        nsub=      6e+16 cm^-3           nlx= 1.4659e-07 meter   
      gamma1=          0 V^-1/2       gamma2=          0 V^-1/2  
          k1=   0.351943 V^1/2            k2=  0.0298493         
          k3=      0.001                 k3b=  0.0592323 V^-1    
          w0=      1e-05 meter          dvt0=  0.0183405         
        dvt1= 0.00489758                dvt2= -0.0252658 V^-1    
       dvt0w=          0 meter^-1      dvt1w=          0 meter^-1
       dvt2w=          0 V^-1           dsub= 0.00304547         
        eta0= 0.00348737                etab=0.000455799 V^-1    
          u0=    455.303 cm^2/V/sec         ua=5.22359e-10 m/V     
          ub=1.10471e-18 (m/V)^2          uc=3.28789e-11 V^-1    
        vsat=     105099 m/sec            a1=          0 v^-1    
          a2=          1               delta=       0.01 V       
        rdsw=    509.568 ohm-um         prwg=  0.0227558 V^-1    
        prwb=     -0.001 V^-1/2           wr=          1         
        pclm=    1.04463             pdiblc1=   0.144195         
     pdiblc2=0.000451338             pdiblcb=-2.81676e-05 V^-1    
      pscbe1=1.76111e+10 V/m          pscbe2=3.77292e-09 V/m     
       drout=   0.469872                pvag=  0.0361824         
     nfactor=   0.134489                cdsc= 0.00152751 f/m^2   
       cdscb=          0 f/V/m^2       cdscd=          0 f/V/m^2 
         cit=          0 f/m^2        alpha0=          0 m/V     
       beta0=         30 V               dlc=4.39347e-09 meter   
         dwc= 2.1265e-09 meter           clc=      1e-07 meter   
         cle=        0.6                cgso=   6.27e-10 f/m     
        cgdo=   6.27e-10 f/m            cgbo=          0 f/m     
        cgsl=          0 f/m            cgdl=          0 f/m     
      ckappa=        0.6                  cf=9.33852e-11 f/m     
        tnom=     300.15 K               kt1=      -0.11 V       
        kt1l=          0                 kt2=      0.022         
         ute=       -1.5                 ua1=   4.31e-09 m/V     
         ub1=  -7.61e-18 (m/V)^2         uc1=   -5.6e-11 m/V^2   
          at=      33000 m/s             prt=          0         
         using Berkeley noise model       noiMod=          1         
        noia=      1e+20                noib=      50000         
        noic=   -1.4e-12                  em=    4.1e+07         
          ef=          1                  af=          1         
          kf=          0              gdsnoi=-1.23457e-29         
         using Hspice diodes            using ACM 
         acm=         0                 hdif=         0 meter    
        ldif=         0 meter             js=         0 amp/m^2  
         jsw=         0 amp/m            xti=         0          
           n=         1                   cj=0.00191866 f/m^2    
          mj=  0.472173                   pb=  0.978405 V        
        cjsw=4.44159e-10 f/m             mjsw=  0.287112          
         php=  0.978405 V               pbsw (not used)           
      cjgate=4.44159e-10 f/m            cjswg (not used)           
       mjswg (not used)                 pbswg (not used)           
       lketa=-0.00614406               wketa=0.000751269         
       pvth0= 0.00134299                 pk2=-0.00314072         
       prdsw=   -61.8357         
 ***************************************************************************
 ***        model parameters  model name:   0:cmosp    model type:pmos   ***
 ***************************************************************************

   *** general parameters ***
    deriv=   0.           

   ***  level 49  model parameters  ***

      hspver=    2006.03               level=         49         
     version=        3.1            paramchk=          0         
      apwarn=          1                lite=          0         
      vgslim=          0             binUnit=          1         
      capMod=          2               xpart=        0.4         
      mobMod=          1              nqsMod=          0         
      stiMod=          0                 elm=          5         
    sfvtflag=          0                 tox=    5.8e-09 meter   
          xj=      1e-07 meter       binflag=          0         
        lmin=          0 meter          lmax=          0 meter   
        wmin=          0 meter          wmax=          0 meter   
        lref=          0 meter          wref=          0 meter   
        lint=8.71907e-09 meter          wint=2.74881e-08 meter   
       lmult=          1               wmult=          1         
          ll=          0                 lln=          1         
          lw=          0                 lwn=          1         
         lwl=          0                  wl=          0         
         wln=          1                  ww=          0         
         wwn=          1                 wwl=          0         
         dwg=-4.08759e-08 m/V             dwb=2.03201e-08 m/V^1/2 
          xl=     -3e-08                  xw=          0         
          a0=    1.38264                 ags=   0.419298 V^-1    
          b0= 2.8441e-06 meter            b1=      5e-06 meter   
        keta=  0.0208695 V^-1           voff=      -0.15 V       
       ngate=          0 cm^-3           vbx=          0 V       
         vbm=         -3 V                xt=   1.55e-07 meter   
        vth0=  -0.615873 V               nch= 4.1589e+17 cm^-3   
        nsub=      6e+16 cm^-3           nlx=      1e-09 meter   
      gamma1=          0 V^-1/2       gamma2=          0 V^-1/2  
          k1=   0.459838 V^1/2            k2=  0.0399415         
          k3=          0                 k3b=    8.74107 V^-1    
          w0=      1e-06 meter          dvt0=   0.624949         
        dvt1=   0.203296                dvt2= -0.0513763 V^-1    
       dvt0w=          0 meter^-1      dvt1w=          0 meter^-1
       dvt2w=          0 V^-1           dsub=    1.02871         
        eta0=   0.324124                etab=    -0.1842 V^-1    
          u0=    158.675 cm^2/V/sec         ua=2.20002e-10 m/V     
          ub=4.45742e-18 (m/V)^2          uc=1.02138e-10 V^-1    
        vsat=     185064 m/sec            a1=          0 v^-1    
          a2=          1               delta=       0.01 V       
        rdsw=    968.546 ohm-um         prwg=  -0.102648 V^-1    
        prwb=     -0.325 V^-1/2           wr=          1         
        pclm=    5.26546             pdiblc1= 0.00422834         
     pdiblc2= 0.00120452             pdiblcb= 0.00237525 V^-1    
      pscbe1=3.01146e+10 V/m          pscbe2=3.03704e-07 V/m     
       drout=          0                pvag=    8.95643         
     nfactor=    1.54605                cdsc=0.000141332 f/m^2   
       cdscb=          0 f/V/m^2       cdscd=          0 f/V/m^2 
         cit=          0 f/m^2        alpha0=          0 m/V     
       beta0=         30 V               dlc=8.71907e-09 meter   
         dwc=2.74881e-08 meter           clc=      1e-07 meter   
         cle=        0.6                cgso=   5.59e-10 f/m     
        cgdo=   5.59e-10 f/m            cgbo=          0 f/m     
        cgsl=          0 f/m            cgdl=          0 f/m     
      ckappa=        0.6                  cf=9.33852e-11 f/m     
        tnom=     300.15 K               kt1=      -0.11 V       
        kt1l=          0                 kt2=      0.022         
         ute=       -1.5                 ua1=   4.31e-09 m/V     
         ub1=  -7.61e-18 (m/V)^2         uc1=   -5.6e-11 m/V^2   
          at=      33000 m/s             prt=          0         
         using Berkeley noise model       noiMod=          1         
        noia=    9.9e+18                noib=       2400         
        noic=    1.4e-12                  em=    4.1e+07         
          ef=          1                  af=          1         
          kf=          0              gdsnoi=-1.23457e-29         
         using Hspice diodes            using ACM 
         acm=         0                 hdif=         0 meter    
        ldif=         0 meter             js=         0 amp/m^2  
         jsw=         0 amp/m            xti=         0          
           n=         1                   cj=0.00188286 f/m^2    
          mj=  0.467979                   pb=  0.989132 V        
        cjsw=3.67186e-10 f/m             mjsw=  0.356213          
         php=  0.989132 V               pbsw (not used)           
      cjgate=3.67186e-10 f/m            cjswg (not used)           
       mjswg (not used)                 pbswg (not used)           
       lketa= -0.0232426               lvsat=     125700         
       wketa= 0.00410049               pvth0= 0.00392376         
         pk2= 0.00206176               prdsw=    15.3953         
 


 **warning** Node specified unrecognized for element     0:b                branch; output ignored

  

  **warning** the following singular supplies were terminated to 1 meg resistor 
          supply       node1            node2
(./ms/opamp_soochin.sp:110)v3                      0:vss              defined in subckt 0                     0:0                defined in subckt 0               
      
 **info** set option symb=1 internally to help for convergence.
 *****************************************************************
 ******  option summary
 ******
 runlvl  = 3         bypass  = 2         
 **info** dc convergence successful at GMINDC ramping method 
1****** HSPICE -- K-2015.06-SP1 linux64 (Aug 23 2015) ******                    
 ******  
 .title ece423 final project

 ****** operating point information tnom=  25.000 temp= -40.000 ******
 ****** operating point status is all       simulation time is     0.     
    node    =voltage      node    =voltage      node    =voltage

 +0:a       =   2.0412  0:b       =   2.1436  0:d10     = 274.9185m
 +0:d11     = 274.9185m 0:d3      =   2.1601  0:d4      =   2.1601 
 +0:d51s5   = 139.3364m 0:d8s10   = 122.1119m 0:d9s11   = 122.1119m
 +0:idiff   = 673.3846m 0:idiff1  = 696.6067m 0:idiff2  = 696.6067m
 +0:iref    =   2.1455  0:sb1n    = 639.2109m 0:sb2n    = 757.7067m
 +0:sb2p    =   1.8218  0:sb3n    = 871.6941m 0:sb3p    =   1.5710 
 +0:soochn  =   1.5109  0:soochp  = 937.2674m 0:vcm_ref =   1.2500 
 +0:vdd     =   2.7500  0:vfold1  =   2.4291  0:vfold2  =   2.4291 
 +0:vin1    =   1.2500  0:vin2    =   1.2500  0:voutn   =   1.3328 
 +0:voutp   =   1.3328  0:vss     =   0.      0:vtest   =   1.2500 


 **** voltage sources

 subckt                                                                    
 element  0:v1       0:v2       0:v3       0:v4       0:v5       0:v6      
  volts      1.2500     2.7500     0.         1.2500     1.2500     0.     
  current   -1.2500n   -4.5178m    0.        -1.2500n    0.        -1.2500n
  power      1.5625n   12.4240m    0.         1.5625n    0.         0.     

     total voltage source power dissipation=   12.4240m       watts



 **** current sources

 subckt             
 element  0:i1      
  volts      2.1455 
  current  225.0000u
  power   -482.7487u


     total current source power dissipation=-482.7487u       watts

 **** resistors

 subckt                        
 element  0:rf1      0:rf2     
  r value    1.0000g    1.0000g
  v drop     1.2500     1.2500 
  current    1.2500n    1.2500n
  power      1.5625n    1.5625n



 **** mosfets


 subckt                                                                    
 element  0:m0       0:m1       0:m2       0:m3       0:m4       0:m34     
 model    0:cmosp    0:cmosn    0:cmosn    0:cmosp    0:cmosp    0:cmosp   
 region     Saturati   Saturati   Saturati   Saturati   Saturati   Saturati
  id      -225.0000u  408.8516u  408.8516u -395.6173u -395.6173u -395.6173u
  ibs        0.         0.         0.         0.         0.         0.     
  ibd        0.         0.         0.         0.         0.         0.     
  vgs     -604.4501m  576.6154m  576.6154m -607.2879m -607.2879m -589.1688m
  vds     -604.4501m    1.7557     1.7557  -268.9701m -268.9701m -827.3196m
  vbs        0.         0.         0.         0.         0.         0.     
  vth     -538.3460m  531.7270m  531.7270m -542.9097m -542.9097m -535.5509m
  vdsat   -101.4642m   74.0720m   74.0720m -100.7529m -100.7529m  -94.1833m
  vod      -66.1041m   44.8884m   44.8884m  -64.3781m  -64.3781m  -53.6179m
  beta      46.8063m   96.5285m   96.5285m   93.4458m   93.4458m   94.0162m
  gam eff  384.2682m  297.1965m  297.1965m  384.4091m  384.4091m  384.4091m
  gm         3.3082m    6.6722m    6.6722m    5.8550m    5.8550m    6.1230m
  gds      104.9784u  196.5909u  196.5909u  230.6350u  230.6350u  173.8496u
  gmb      843.8124u    1.4916m    1.4916m    1.5003m    1.5003m    1.5622m
  cdtot    159.4231f  106.8991f  106.8991f  341.5100f  341.5100f  306.7114f
  cgtot    157.1077f  112.8385f  112.8385f  313.9541f  313.9541f  309.5623f
  cstot    221.0916f  163.5095f  163.5095f  441.5845f  441.5845f  438.0052f
  cbtot    266.6948f  185.0682f  185.0682f  555.3718f  555.3718f  520.8603f
  cgs      106.9081f   74.6681f   74.6681f  213.6109f  213.6109f  207.6291f
  cgd       45.9443f   35.6039f   35.6039f   92.0688f   92.0688f   91.9774f



 subckt                                                                    
 element  0:m35      0:m5       0:m51      0:m6       0:m7       0:m8      
 model    0:cmosp    0:cmosn    0:cmosn    0:cmosp    0:cmosp    0:cmosn   
 region     Saturati   Saturati   Saturati   Saturati   Saturati   Saturati
  id      -395.6173u  817.7032u  817.7032u -804.4689u -804.4689u  395.6173u
  ibs        0.         0.         0.         0.         0.         0.     
  ibd        0.         0.         0.         0.         0.         0.     
  vgs     -589.1688m  639.2109m  618.3703m -606.3717m -606.3717m  639.2109m
  vds     -827.3196m  139.3364m  534.0483m -320.8845m -320.8845m  122.1119m
  vbs        0.         0.         0.         0.         0.         0.     
  vth     -535.5509m  548.3232m  544.2542m -542.2966m -542.2966m  548.5676m
  vdsat    -94.1833m   99.0812m   89.4656m -100.7561m -100.7561m   98.9253m
  vod      -53.6179m   90.8877m   74.1161m  -64.0751m  -64.0751m   90.6433m
  beta      94.0162m  191.5626m  192.0589m  186.9969m  186.9969m   95.7746m
  gam eff  384.4091m  296.9071m  296.9071m  384.4794m  384.4794m  297.1965m
  gm         6.1230m   11.5714m   12.5455m   11.9293m   11.9293m    5.5233m
  gds      173.8496u    1.3283m  513.2694u  443.0929u  443.0929u  849.2405u
  gmb        1.5622m    2.5591m    2.7803m    3.0585m    3.0585m    1.2215m
  cdtot    306.7114f  272.0144f  248.7931f  674.3456f  674.3456f  137.3109f
  cgtot    309.5623f  238.9892f  234.4191f  627.5224f  627.5224f  119.7418f
  cstot    438.0052f  335.3751f  332.9302f  882.5096f  882.5096f  167.9491f
  cbtot    520.8603f  425.9461f  404.4728f    1.1018p    1.1018p  214.1653f
  cgs      207.6291f  164.3756f  160.1493f  426.7170f  426.7170f   82.1543f
  cgd       91.9774f   72.5205f   71.1387f  184.0532f  184.0532f   36.5858f



 subckt                                                                    
 element  0:m9       0:m10      0:m11      0:m32      0:m33      0:m12     
 model    0:cmosn    0:cmosn    0:cmosn    0:cmosn    0:cmosn    0:cmosp   
 region     Saturati   Saturati   Saturati   Saturati   Saturati   Saturati
  id       395.6173u  395.6173u  395.6173u  395.6173u  395.6173u -292.6503u
  ibs        0.         0.         0.         0.         0.         0.     
  ibd        0.         0.         0.         0.         0.         0.     
  vgs      639.2109m  635.5948m  635.5948m  596.7756m  596.7756m -604.4501m
  vds      122.1119m  152.8066m  152.8066m    1.0579     1.0579    -1.2391 
  vbs        0.         0.         0.         0.         0.         0.     
  vth      548.5676m  548.2512m  548.2512m  538.9207m  538.9207m -529.9816m
  vdsat     98.9253m   97.0012m   97.0012m   80.6433m   80.6433m -106.7888m
  vod       90.6433m   87.3436m   87.3436m   57.8549m   57.8549m  -74.4685m
  beta      95.7746m   95.8139m   95.8139m   96.2790m   96.2790m   46.9360m
  gam eff  297.1965m  297.1965m  297.1965m  297.1965m  297.1965m  384.2682m
  gm         5.5233m    5.7618m    5.7618m    6.2975m    6.2975m    4.1301m
  gds      849.2405u  535.5090u  535.5090u  217.2885u  217.2885u  109.3416u
  gmb        1.2215m    1.2731m    1.2731m    1.4006m    1.4006m    1.0374m
